;$FILEVERSION=1.1
;$STARTTIME=42699.5076160417
;
;   C:\Users\Admin\Documents\Log.trc
;
;   Start time: 11/25/2016 12:10:58.026.0
;   Generated by PCAN-View v4.0.31.444
;
;   Message Number
;   |         Time Offset (ms)
;   |         |        Type
;   |         |        |        ID (hex)
;   |         |        |        |     Data Length
;   |         |        |        |     |   Data Bytes (hex) ...
;   |         |        |        |     |   |
;---+--   ----+----  --+--  ----+---  +  -+ -- -- -- -- -- -- --
     1)         0.7  Rx         0038  7  80 00 08 00 00 00 C7 
     2)         1.5  Rx         0020  3  00 00 07 
     3)         1.8  Rx         0030  8  04 00 00 00 00 20 00 5C 
     4)         2.0  Rx         00B1  6  00 00 00 00 11 C8 
     5)         2.2  Rx         00B4  8  00 00 00 00 00 00 00 BC 
     6)         2.5  Rx         0230  7  00 05 00 00 00 00 3E 
     7)         2.8  Rx         003A  7  00 00 00 00 04 00 45 
     8)         4.7  Rx         003E  3  1D E6 44 
     9)         5.4  Rx         003B  5  00 00 00 E4 24 
    10)         6.8  Rx         0120  8  00 00 00 00 10 10 00 49 
    11)         7.6  Rx         0039  4  23 00 10 70 
    12)         8.4  Rx         0030  8  04 00 00 00 00 20 00 5C 
    13)         8.6  Rx         00B3  6  00 00 00 00 11 CA 
    14)         8.8  Rx         03C8  5  00 34 00 00 04 
    15)         9.0  Rx         0038  7  80 00 08 00 00 00 C7 
    16)        10.9  Rx         003A  7  00 00 00 00 04 00 45 
    17)        11.9  Rx         0262  4  00 01 00 69 
    18)        12.9  Rx         003E  3  1D E6 44 
    19)        13.4  Rx         003B  5  00 00 00 E3 23 
    20)        14.3  Rx         0020  3  00 00 07 
    21)        14.6  Rx         0030  8  04 00 00 00 00 20 00 5C 
    22)        14.8  Rx         00B1  6  00 00 00 00 11 C8 
    23)        15.1  Rx         00B4  8  00 00 00 00 00 00 00 BC 
    24)        15.8  Rx         0039  4  23 00 10 70 
    25)        17.1  Rx         0038  7  80 00 08 00 00 00 C7 
    26)        17.4  Rx         0244  8  10 00 00 00 00 00 00 5E 
    27)        19.1  Rx         003A  7  00 00 00 00 04 00 45 
    28)        21.1  Rx         0030  8  04 00 00 00 00 20 00 5C 
    29)        21.3  Rx         003E  3  1D E6 44 
    30)        21.5  Rx         003B  5  00 00 00 E3 23 
    31)        21.7  Rx         00B3  6  00 00 00 00 11 CA 
    32)        23.2  Rx         0120  8  00 00 00 00 10 10 00 49 
    33)        24.0  Rx         0039  4  23 00 10 70 
    34)        25.3  Rx         0038  7  80 00 08 00 00 00 C7 
    35)        27.1  Rx         0020  3  00 00 07 
    36)        27.4  Rx         0030  8  04 00 00 00 00 20 00 5C 
    37)        27.5  Rx         003A  7  00 00 00 00 04 00 45 
    38)        27.7  Rx         00B1  6  00 00 00 00 11 C8 
    39)        28.0  Rx         00B4  8  00 00 00 00 00 00 00 BC 
    40)        28.2  Rx         0348  6  00 01 00 00 00 52 
    41)        28.4  Rx         0230  7  00 05 00 00 00 00 3E 
    42)        29.3  Rx         003E  3  1D E6 44 
    43)        29.5  Rx         003B  5  00 00 00 E3 23 
    44)        32.0  Rx         0262  4  00 01 00 69 
    45)        32.3  Rx         0039  4  23 00 10 70 
    46)        33.5  Rx         0038  7  80 00 08 00 00 00 C7 
    47)        33.8  Rx         0030  8  04 00 00 00 00 20 00 5C 
    48)        34.0  Rx         00B3  6  00 00 00 00 11 CA 
    49)        35.5  Rx         003A  7  00 00 00 00 04 00 45 
    50)        37.4  Rx         003B  5  00 00 00 E3 23 
    51)        37.6  Rx         003E  3  1D E6 44 
    52)        39.6  Rx         0120  8  00 00 00 00 10 10 00 49 
    53)        39.7  Rx         0020  3  00 00 07 
    54)        40.0  Rx         0030  8  04 00 00 00 00 20 00 5C 
    55)        40.2  Rx         00B1  6  00 00 00 00 11 C8 
    56)        40.5  Rx         00B4  8  00 00 00 00 00 00 00 BC 
    57)        40.6  Rx         0039  4  23 00 10 70 
    58)        41.4  Rx         05CC  3  24 01 C0 
    59)        41.7  Rx         0038  7  80 00 08 00 00 00 C7 
    60)        41.9  Rx         0244  8  10 00 00 00 00 00 00 5E 
    61)        43.7  Rx         003A  7  00 00 00 00 04 00 45 
    62)        45.4  Rx         003B  5  00 00 00 E3 23 
    63)        45.7  Rx         003E  3  1D E6 44 
    64)        46.6  Rx         0030  8  04 00 00 00 00 20 00 5C 
    65)        46.9  Rx         00B3  6  00 00 00 00 11 CA 
    66)        48.6  Rx         0039  4  23 00 10 70 
    67)        49.9  Rx         0038  7  80 00 08 00 00 00 C7 
    68)        50.1  Rx         03CA  5  00 20 00 00 F2 
    69)        51.7  Rx         0262  4  00 01 00 69 
    70)        51.9  Rx         003A  7  00 00 00 00 04 00 45 
    71)        52.6  Rx         0020  3  00 00 07 
    72)        52.9  Rx         0030  8  04 00 00 00 00 20 00 5C 
    73)        53.0  Rx         00B1  6  00 00 00 00 11 C8 
    74)        53.3  Rx         00B4  8  00 00 00 00 00 00 00 BC 
    75)        53.5  Rx         003B  5  00 00 00 E3 23 
    76)        53.7  Rx         0230  7  00 05 00 00 00 00 3E 
    77)        53.8  Rx         003E  3  1D E6 44 
    78)        56.0  Rx         0120  8  00 00 00 00 10 10 00 49 
    79)        56.8  Rx         0039  4  23 00 10 70 
    80)        58.1  Rx         0038  7  80 00 08 00 00 00 C7 
    81)        59.4  Rx         0030  8  04 00 00 00 00 20 00 5C 
    82)        59.6  Rx         00B3  6  00 00 00 00 11 CA 
    83)        60.1  Rx         003A  7  00 00 00 00 04 00 45 
    84)        61.4  Rx         003B  5  00 00 00 E4 24 
    85)        62.1  Rx         003E  3  1D E6 44 
    86)        65.0  Rx         0039  4  23 00 10 70 
    87)        65.4  Rx         0020  3  00 00 07 
    88)        65.6  Rx         0030  8  04 00 00 00 00 20 00 5C 
    89)        65.8  Rx         00B1  6  00 00 00 00 11 C8 
    90)        66.1  Rx         00B4  8  00 00 00 00 00 00 00 BC 
    91)        66.3  Rx         0038  7  80 00 08 00 00 00 C7 
    92)        66.6  Rx         0244  8  10 00 00 00 00 00 00 5E 
    93)        66.8  Rx         03C9  8  03 FF 21 02 9B 03 21 B8 
    94)        68.2  Rx         003A  7  00 00 00 00 04 00 45 
    95)        68.4  Rx         0348  6  00 01 00 00 00 52 
    96)        69.4  Rx         003B  5  00 00 00 E4 24 
    97)        70.2  Rx         003E  3  1D E6 44 
    98)        72.0  Rx         0030  8  04 00 00 00 00 20 00 5C 
    99)        72.2  Rx         00B3  6  00 00 00 00 11 CA 
   100)        72.4  Rx         0120  8  00 00 00 00 10 10 00 49 
   101)        72.6  Rx         0262  4  00 01 00 69 
   102)        73.2  Rx         0039  4  23 00 10 70 
   103)        73.5  Rx         03CB  7  64 64 00 81 11 10 3F 
   104)        74.2  Rx         03C8  5  00 34 00 00 04 
   105)        74.5  Rx         0038  7  80 00 08 00 00 00 C7 
   106)        76.4  Rx         003A  7  00 00 00 00 04 00 45 
   107)        77.4  Rx         003B  5  00 00 00 E3 23 
   108)        77.9  Rx         0020  3  00 00 07 
   109)        78.2  Rx         0030  8  04 00 00 00 00 20 00 5C 
   110)        78.3  Rx         00B1  6  00 00 00 00 11 C8 
   111)        78.5  Rx         003E  3  1D E6 44 
   112)        78.8  Rx         00B4  8  00 00 00 00 00 00 00 BC 
   113)        79.0  Rx         0230  7  00 05 00 00 00 00 3E 
   114)        81.4  Rx         0039  4  23 00 10 70 
   115)        81.6  Rx         03CD  5  00 00 00 E2 B7 
   116)        82.6  Rx         0038  7  80 00 08 00 00 00 C7 
   117)        84.5  Rx         03CF  5  10 0F 1D 00 13 
   118)        84.8  Rx         0030  8  04 00 00 00 00 20 00 5C 
   119)        85.0  Rx         003A  7  00 00 00 00 04 00 45 
   120)        85.2  Rx         00B3  6  00 00 00 00 11 CA 
   121)        85.4  Rx         003B  5  00 00 00 E4 24 
   122)        86.6  Rx         003E  3  1D E6 44 
   123)        88.8  Rx         0120  8  00 00 00 00 10 10 00 49 
   124)        89.6  Rx         0039  4  23 00 10 70 
   125)        90.6  Rx         0020  3  00 00 07 
   126)        90.9  Rx         0030  8  04 00 00 00 00 20 00 5C 
   127)        91.1  Rx         0038  7  80 00 08 00 00 00 C7 
   128)        91.3  Rx         00B1  6  00 00 00 00 11 C8 
   129)        91.5  Rx         00B4  8  00 00 00 00 00 00 00 BC 
   130)        91.8  Rx         0244  8  10 00 00 00 00 00 00 5E 
   131)        91.9  Rx         0262  4  00 01 00 69 
   132)        92.8  Rx         003A  7  00 00 00 00 04 00 45 
   133)        93.4  Rx         003B  5  00 00 00 E3 23 
   134)        94.8  Rx         003E  3  1D E6 44 
   135)        97.6  Rx         0030  8  04 00 00 00 00 20 00 5C 
   136)        97.8  Rx         00B3  6  00 00 00 00 11 CA 
   137)        97.9  Rx         0039  4  23 00 10 70 
   138)        99.0  Rx         0038  7  80 00 08 00 00 00 C7 
   139)       101.0  Rx         003A  7  00 00 00 00 04 00 45 
   140)       101.5  Rx         003B  5  00 00 00 E4 24 
   141)       103.0  Rx         003E  3  1D E6 44 
   142)       103.5  Rx         0020  3  00 00 07 
   143)       103.8  Rx         0030  8  04 00 00 00 00 20 00 5C 
   144)       103.9  Rx         00B1  6  00 00 00 00 11 C8 
   145)       104.2  Rx         00B4  8  00 00 00 00 00 00 00 BC 
   146)       104.4  Rx         0230  7  00 05 00 00 00 00 3E 
   147)       105.2  Rx         0120  8  00 00 00 00 10 10 00 49 
   148)       106.0  Rx         0039  4  23 00 10 70 
   149)       109.2  Rx         0038  7  80 00 08 00 00 00 C7 
   150)       109.4  Rx         003A  7  00 00 00 00 04 00 45 
   151)       109.6  Rx         003B  5  00 00 00 E4 24 
   152)       109.8  Rx         0348  6  00 01 00 00 00 52 
   153)       110.3  Rx         0030  8  04 00 00 00 00 20 00 5C 
   154)       110.5  Rx         00B3  6  00 00 00 00 11 CA 
   155)       111.2  Rx         003E  3  1D E6 44 
   156)       111.7  Rx         0262  4  00 01 00 69 
   157)       114.2  Rx         0039  4  23 00 10 70 
   158)       115.4  Rx         0038  7  80 00 08 00 00 00 C7 
   159)       115.7  Rx         0244  8  10 00 00 00 00 00 00 5E 
   160)       116.3  Rx         0020  3  00 00 07 
   161)       116.5  Rx         0030  8  04 00 00 00 00 20 00 5C 
   162)       116.7  Rx         00B1  6  00 00 00 00 11 C8 
   163)       116.9  Rx         00B4  8  00 00 00 00 00 00 00 BC 
   164)       117.4  Rx         003A  7  00 00 00 00 04 00 45 
   165)       117.6  Rx         003B  5  00 00 00 E3 23 
   166)       119.4  Rx         003E  3  1D E6 44 
   167)       121.5  Rx         0120  8  00 00 00 00 10 10 00 49 
   168)       122.4  Rx         0039  4  23 00 10 70 
   169)       123.0  Rx         0030  8  04 00 00 00 00 20 00 5C 
   170)       123.2  Rx         00B3  6  00 00 00 00 11 CA 
   171)       123.6  Rx         0038  7  80 00 08 00 00 00 C7 
   172)       125.4  Rx         003B  5  00 00 00 E3 23 
   173)       125.7  Rx         003A  7  00 00 00 00 04 00 45 
   174)       127.6  Rx         003E  3  1D E6 44 
   175)       128.9  Rx         0020  3  00 00 07 
   176)       129.2  Rx         0030  8  04 00 00 00 00 20 00 5C 
   177)       129.4  Rx         00B1  6  00 00 00 00 11 C8 
   178)       129.7  Rx         00B4  8  00 00 00 00 00 00 00 BC 
   179)       129.9  Rx         0230  7  00 05 00 00 00 00 3E 
   180)       130.6  Rx         0039  4  23 00 10 70 
   181)       131.8  Rx         0038  7  80 00 08 00 00 00 C7 
   182)       132.0  Rx         0262  4  00 01 00 69 
   183)       133.4  Rx         003B  5  00 00 00 E3 23 
   184)       133.8  Rx         003A  7  00 00 00 00 04 00 45 
   185)       135.7  Rx         0030  8  04 00 00 00 00 20 00 5C 
   186)       135.8  Rx         003E  3  1D E6 44 
   187)       136.1  Rx         00B3  6  00 00 00 00 11 CA 
   188)       137.9  Rx         0120  8  00 00 00 00 10 10 00 49 
   189)       138.8  Rx         0039  4  23 00 10 70 
   190)       139.8  Rx         03C8  5  00 34 00 00 04 
   191)       140.0  Rx         0038  7  80 00 08 00 00 00 C7 
   192)       140.3  Rx         0244  8  10 00 00 00 00 00 00 5E 
   193)       141.4  Rx         003B  5  00 00 00 E3 23 
   194)       141.7  Rx         0020  3  00 00 07 
   195)       141.9  Rx         0030  8  04 00 00 00 00 20 00 5C 
   196)       142.1  Rx         003A  7  00 00 00 00 04 00 45 
   197)       142.3  Rx         00B1  6  00 00 00 00 11 C8 
   198)       142.6  Rx         00B4  8  00 00 00 00 00 00 00 BC 
   199)       144.0  Rx         003E  3  1D E6 44 
   200)       146.9  Rx         0039  4  23 00 10 70 
   201)       148.1  Rx         0038  7  80 00 08 00 00 00 C7 
   202)       148.6  Rx         0030  8  04 00 00 00 00 20 00 5C 
   203)       148.9  Rx         00B3  6  00 00 00 00 11 CA 
   204)       149.1  Rx         0591  4  25 A0 1C 06 
   205)       149.5  Rx         003B  5  00 00 00 E3 23 
   206)       150.2  Rx         003A  7  00 00 00 00 04 00 45 
   207)       150.4  Rx         0348  6  00 01 00 00 00 52 
   208)       150.6  Rx         03CA  5  00 20 00 00 F2 
   209)       151.7  Rx         0262  4  00 01 00 69 
   210)       152.1  Rx         003E  3  1D E6 44 
   211)       154.3  Rx         0120  8  00 00 00 00 10 10 00 49 
   212)       154.6  Rx         0020  3  00 00 07 
   213)       154.9  Rx         0030  8  04 00 00 00 00 20 00 5C 
   214)       155.0  Rx         00B1  6  00 00 00 00 11 C8 
   215)       155.2  Rx         0039  4  23 00 10 70 
   216)       155.4  Rx         00B4  8  00 00 00 00 00 00 00 BC 
   217)       155.7  Rx         0230  7  00 05 00 00 00 00 3E 
   218)       156.4  Rx         0038  7  80 00 08 00 00 00 C7 
   219)       157.4  Rx         05B6  3  64 C1 00 
   220)       157.6  Rx         003B  5  00 00 00 E4 24 
   221)       158.4  Rx         003A  7  00 00 00 00 04 00 45 
   222)       160.3  Rx         003E  3  1D E6 44 
   223)       161.4  Rx         0030  8  04 00 00 00 00 20 00 5C 
   224)       161.6  Rx         00B3  6  00 00 00 00 11 CA 
   225)       163.3  Rx         0039  4  23 00 10 70 
   226)       164.5  Rx         0038  7  80 00 08 00 00 00 C7 
   227)       164.8  Rx         0244  8  10 00 00 00 00 00 00 5E 
   228)       165.5  Rx         003B  5  00 00 00 E4 24 
   229)       165.8  Rx         03C9  8  03 FF 21 02 9B 03 21 B8 
   230)       166.6  Rx         003A  7  00 00 00 00 04 00 45 
   231)       167.3  Rx         0020  3  00 00 07 
   232)       167.6  Rx         0030  8  04 00 00 00 00 20 00 5C 
   233)       167.8  Rx         00B1  6  00 00 00 00 11 C8 
   234)       168.0  Rx         00B4  8  00 00 00 00 00 00 00 BC 
   235)       168.6  Rx         003E  3  1D E6 44 
   236)       170.6  Rx         0120  8  00 00 00 00 10 10 00 49 
   237)       171.5  Rx         0039  4  23 00 10 70 
   238)       171.9  Rx         0521  2  23 00 
   239)       172.1  Rx         0262  4  00 01 00 69 
   240)       173.5  Rx         003B  5  00 00 00 E4 24 
   241)       173.7  Rx         03CB  7  64 64 00 81 11 10 3F 
   242)       173.9  Rx         0030  8  04 00 00 00 00 20 00 5C 
   243)       174.2  Rx         00B3  6  00 00 00 00 11 CA 
   244)       174.8  Rx         0038  7  80 00 08 00 00 00 C7 
   245)       175.0  Rx         003A  7  00 00 00 00 04 00 45 
   246)       176.7  Rx         003E  3  1D E6 44 
   247)       179.7  Rx         0039  4  23 00 10 70 
   248)       179.9  Rx         0020  3  00 00 07 
   249)       180.1  Rx         0030  8  04 00 00 00 00 20 00 5C 
   250)       180.3  Rx         00B1  6  00 00 00 00 11 C8 
   251)       180.6  Rx         00B4  8  00 00 00 00 00 00 00 BC 
   252)       180.9  Rx         0230  7  00 05 00 00 00 00 3E 
   253)       181.1  Rx         0038  7  80 00 08 00 00 00 C7 
   254)       181.5  Rx         003B  5  00 00 00 E3 23 
   255)       181.7  Rx         03CD  5  00 00 00 E3 B8 
   256)       183.0  Rx         003A  7  00 00 00 00 04 00 45 
   257)       184.9  Rx         003E  3  1D E6 44 
   258)       186.6  Rx         0030  8  04 00 00 00 00 20 00 5C 
   259)       186.8  Rx         00B3  6  00 00 00 00 11 CA 
   260)       187.1  Rx         0120  8  00 00 00 00 10 10 00 49 
   261)       187.3  Rx         04C1  8  01 00 09 00 00 00 00 00 
   262)       187.9  Rx         0039  4  23 00 10 70 
   263)       189.1  Rx         0038  7  80 00 08 00 00 00 C7 
   264)       189.4  Rx         0244  8  10 00 00 00 00 00 00 5E 
   265)       189.6  Rx         003B  5  00 00 00 E3 23 
   266)       191.1  Rx         003A  7  00 00 00 00 04 00 45 
   267)       191.3  Rx         0348  6  00 01 00 00 00 52 
   268)       192.0  Rx         0262  4  00 01 00 69 
   269)       192.6  Rx         0020  3  00 00 07 
   270)       192.8  Rx         0030  8  04 00 00 00 00 20 00 5C 
   271)       193.0  Rx         00B1  6  00 00 00 00 11 C8 
   272)       193.2  Rx         003E  3  1D E6 44 
   273)       193.4  Rx         00B4  8  00 00 00 00 00 00 00 BC 
   274)       196.1  Rx         0039  4  23 00 10 70 
   275)       197.3  Rx         0038  7  80 00 08 00 00 00 C7 
   276)       197.5  Rx         003B  5  00 00 00 E3 23 
   277)       198.8  Rx         05ED  6  67 00 00 FF 00 00 
   278)       199.3  Rx         003A  7  00 00 00 00 04 00 45 
   279)       199.6  Rx         0030  8  04 00 00 00 00 20 00 5C 
   280)       199.8  Rx         00B3  6  00 00 00 00 11 CA 
   281)       201.3  Rx         003E  3  1D E6 44 
   282)       203.4  Rx         0120  8  00 00 00 00 10 10 00 49 
   283)       204.3  Rx         0039  4  23 00 10 70 
   284)       205.3  Rx         03C8  5  00 34 00 00 04 
   285)       205.6  Rx         0038  7  80 00 08 00 00 00 C7 
   286)       205.7  Rx         0020  3  00 00 07 
   287)       206.0  Rx         0030  8  04 00 00 00 00 20 00 5C 
   288)       206.2  Rx         003B  5  00 00 00 E4 24 
   289)       206.4  Rx         00B1  6  00 00 00 00 11 C8 
   290)       206.6  Rx         00B4  8  00 00 00 00 00 00 00 BC 
   291)       206.9  Rx         0230  7  00 05 00 00 00 00 3E 
   292)       207.6  Rx         003A  7  00 00 00 00 04 00 45 
   293)       209.5  Rx         003E  3  1D E6 44 
   294)       212.0  Rx         0262  4  00 01 00 69 
   295)       212.3  Rx         0030  8  04 00 00 00 00 20 00 5C 
   296)       212.5  Rx         0039  4  23 00 10 70 
   297)       212.7  Rx         00B3  6  00 00 00 00 11 CA 
   298)       213.5  Rx         003B  5  00 00 00 E4 24 
   299)       213.8  Rx         0038  7  80 00 08 00 00 00 C7 
   300)       214.0  Rx         0244  8  10 00 00 00 00 00 00 5E 
   301)       215.6  Rx         03CF  5  10 0F 1D 00 13 
   302)       215.8  Rx         003A  7  00 00 00 00 04 00 45 
   303)       217.7  Rx         003E  3  1D E6 44 
   304)       218.3  Rx         0020  3  00 00 07 
   305)       218.6  Rx         0030  8  04 00 00 00 00 20 00 5C 
   306)       218.7  Rx         00B1  6  00 00 00 00 11 C8 
   307)       219.0  Rx         00B4  8  00 00 00 00 00 00 00 BC 
   308)       219.8  Rx         0120  8  00 00 00 00 10 10 00 49 
   309)       220.7  Rx         0039  4  23 00 10 70 
   310)       221.5  Rx         003B  5  00 00 00 E3 23 
   311)       221.9  Rx         0038  7  80 00 08 00 00 00 C7 
   312)       223.9  Rx         003A  7  00 00 00 00 04 00 45 
   313)       225.1  Rx         0030  8  04 00 00 00 00 20 00 5C 
   314)       225.3  Rx         00B3  6  00 00 00 00 11 CA 
   315)       225.9  Rx         003E  3  1D E6 44 
   316)       228.9  Rx         0039  4  23 00 10 70 
   317)       229.5  Rx         003B  5  00 00 00 E3 23 
   318)       230.1  Rx         0038  7  80 00 08 00 00 00 C7 
   319)       231.1  Rx         0020  3  00 00 07 
   320)       231.3  Rx         0030  8  04 00 00 00 00 20 00 5C 
   321)       231.5  Rx         00B1  6  00 00 00 00 11 C8 
   322)       231.8  Rx         00B4  8  00 00 00 00 00 00 00 BC 
   323)       231.9  Rx         0262  4  00 01 00 69 
   324)       232.1  Rx         003A  7  00 00 00 00 04 00 45 
   325)       232.4  Rx         0230  7  00 05 00 00 00 00 3E 
   326)       232.6  Rx         0348  6  00 01 00 00 00 52 
   327)       232.8  Rx         057F  7  68 00 10 00 00 00 00 
   328)       234.1  Rx         003E  3  1D E6 44 
   329)       236.2  Rx         0120  8  00 00 00 00 10 10 00 49 
   330)       237.1  Rx         0039  4  23 00 10 70 
   331)       237.5  Rx         003B  5  00 00 00 E3 23 
   332)       237.8  Rx         0030  8  04 00 00 00 00 20 00 5C 
   333)       238.0  Rx         00B3  6  00 00 00 00 11 CA 
   334)       238.3  Rx         0038  7  80 00 08 00 00 00 C7 
   335)       238.6  Rx         0244  8  10 00 00 00 00 00 00 5E 
   336)       240.2  Rx         003A  7  00 00 00 00 04 00 45 
   337)       242.3  Rx         003E  3  1D E6 44 
   338)       243.6  Rx         0020  3  00 00 07 
   339)       243.9  Rx         0030  8  04 00 00 00 00 20 00 5C 
   340)       244.1  Rx         00B1  6  00 00 00 00 11 C8 
   341)       244.3  Rx         00B4  8  00 00 00 00 00 00 00 BC 
   342)       245.3  Rx         0039  4  23 00 10 70 
   343)       245.5  Rx         003B  5  00 00 00 E3 23 
   344)       246.5  Rx         0038  7  80 00 08 00 00 00 C7 
   345)       248.4  Rx         003A  7  00 00 00 00 04 00 45 
   346)       250.4  Rx         003E  3  1D E6 44 
   347)       250.7  Rx         0030  8  04 00 00 00 00 20 00 5C 
   348)       250.9  Rx         00B3  6  00 00 00 00 11 CA 
   349)       251.1  Rx         03CA  5  00 20 00 00 F2 
   350)       251.9  Rx         0262  4  00 01 00 69 
   351)       252.6  Rx         0120  8  00 00 00 00 10 10 00 49 
   352)       253.5  Rx         0039  4  23 00 10 70 
   353)       253.6  Rx         003B  5  00 00 00 E3 23 
   354)       254.7  Rx         0038  7  80 00 08 00 00 00 C7 
   355)       256.5  Rx         0020  3  00 00 07 
   356)       256.8  Rx         0030  8  04 00 00 00 00 20 00 5C 
   357)       257.0  Rx         003A  7  00 00 00 00 04 00 45 
   358)       257.2  Rx         00B1  6  00 00 00 00 11 C8 
   359)       257.5  Rx         00B4  8  00 00 00 00 00 00 00 BC 
   360)       257.7  Rx         0230  7  00 05 00 00 00 00 3E 
   361)       258.6  Rx         003E  3  1D E6 44 
   362)       261.4  Rx         003B  5  00 00 00 E4 24 
   363)       261.6  Rx         0039  4  23 00 10 70 
   364)       262.8  Rx         0038  7  80 00 08 00 00 00 C7 
   365)       263.1  Rx         0244  8  10 00 00 00 00 00 00 5E 
   366)       263.3  Rx         0030  8  04 00 00 00 00 20 00 5C 
   367)       263.5  Rx         00B3  6  00 00 00 00 11 CA 
   368)       264.8  Rx         003A  7  00 00 00 00 04 00 45 
   369)       265.5  Rx         03C9  8  03 FF 21 02 9B 03 21 B8 
   370)       266.8  Rx         003E  3  1D E6 44 
   371)       268.9  Rx         0120  8  00 00 00 00 10 10 00 49 
   372)       269.2  Rx         0020  3  00 00 07 
   373)       269.5  Rx         0030  8  04 00 00 00 00 20 00 5C 
   374)       269.7  Rx         003B  5  00 00 00 E4 24 
   375)       269.8  Rx         0039  4  23 00 10 70 
   376)       270.0  Rx         00B1  6  00 00 00 00 11 C8 
   377)       270.3  Rx         00B4  8  00 00 00 00 00 00 00 BC 
   378)       270.9  Rx         03C8  5  00 34 00 00 04 
   379)       271.1  Rx         0038  7  80 00 08 00 00 00 C7 
   380)       271.9  Rx         0262  4  00 01 00 69 
   381)       273.0  Rx         003A  7  00 00 00 00 04 00 45 
   382)       273.2  Rx         0348  6  00 01 00 00 00 52 
   383)       273.5  Rx         03CB  7  64 64 00 81 11 10 3F 
   384)       275.0  Rx         003E  3  1D E6 44 
   385)       275.8  Rx         0030  8  04 00 00 00 00 20 00 5C 
   386)       276.1  Rx         00B3  6  00 00 00 00 11 CA 
   387)       277.4  Rx         003B  5  00 00 00 E3 23 
   388)       278.0  Rx         0039  4  23 00 10 70 
   389)       279.2  Rx         0038  7  80 00 08 00 00 00 C7 
   390)       281.1  Rx         003A  7  00 00 00 00 04 00 45 
   391)       281.5  Rx         03CD  5  00 00 00 E3 B8 
   392)       281.8  Rx         0020  3  00 00 07 
   393)       282.1  Rx         0030  8  04 00 00 00 00 20 00 5C 
   394)       282.2  Rx         00B1  6  00 00 00 00 11 C8 
   395)       282.5  Rx         00B4  8  00 00 00 00 00 00 00 BC 
   396)       282.8  Rx         0230  7  00 05 00 00 00 00 3E 
   397)       283.1  Rx         003E  3  1D E6 44 
   398)       285.3  Rx         0120  8  00 00 00 00 10 10 00 49 
   399)       285.5  Rx         003B  5  00 00 00 E3 23 
   400)       286.2  Rx         0039  4  23 00 10 70 
   401)       287.4  Rx         0038  7  80 00 08 00 00 00 C7 
   402)       287.6  Rx         0244  8  10 00 00 00 00 00 00 5E 
   403)       288.6  Rx         0030  8  04 00 00 00 00 20 00 5C 
   404)       288.8  Rx         00B3  6  00 00 00 00 11 CA 
   405)       289.4  Rx         003A  7  00 00 00 00 04 00 45 
   406)       291.3  Rx         003E  3  1D E6 44 
   407)       291.8  Rx         0262  4  00 01 00 69 
   408)       293.4  Rx         003B  5  00 00 00 E3 23 
   409)       294.4  Rx         0039  4  23 00 10 70 
   410)       294.5  Rx         0020  3  00 00 07 
   411)       294.8  Rx         0030  8  04 00 00 00 00 20 00 5C 
   412)       295.0  Rx         00B1  6  00 00 00 00 11 C8 
   413)       295.3  Rx         00B4  8  00 00 00 00 00 00 00 BC 
   414)       295.6  Rx         0038  7  80 00 08 00 00 00 C7 
   415)       297.4  Rx         05CC  3  24 01 C0 
   416)       297.7  Rx         003A  7  00 00 00 00 04 00 45 
   417)       299.5  Rx         003E  3  1D E6 44 
   418)       301.4  Rx         003B  5  00 00 00 E4 24 
   419)       301.7  Rx         0030  8  04 00 00 00 00 20 00 5C 
   420)       301.9  Rx         00B3  6  00 00 00 00 11 CA 
   421)       302.1  Rx         0120  8  00 00 00 00 10 10 00 49 
   422)       302.6  Rx         0039  4  23 00 10 70 
   423)       303.8  Rx         0038  7  80 00 08 00 00 00 C7 
   424)       305.7  Rx         003A  7  00 00 00 00 04 00 45 
   425)       307.5  Rx         0020  3  00 00 07 
   426)       307.7  Rx         0030  8  04 00 00 00 00 20 00 5C 
   427)       307.8  Rx         003E  3  1D E6 44 
   428)       308.1  Rx         00B1  6  00 00 00 00 11 C8 
   429)       308.3  Rx         00B4  8  00 00 00 00 00 00 00 BC 
   430)       308.5  Rx         0230  7  00 05 00 00 00 00 3E 
   431)       309.4  Rx         003B  5  00 00 00 E3 23 
   432)       310.7  Rx         0039  4  23 00 10 70 
   433)       311.9  Rx         0038  7  80 00 08 00 00 00 C7 
   434)       312.2  Rx         0244  8  10 00 00 00 00 00 00 5E 
   435)       312.3  Rx         0262  4  00 01 00 69 
   436)       313.9  Rx         003A  7  00 00 00 00 04 00 45 
   437)       314.1  Rx         0348  6  00 01 00 00 00 52 
   438)       314.4  Rx         0030  8  04 00 00 00 00 20 00 5C 
   439)       314.6  Rx         00B3  6  00 00 00 00 11 CA 
   440)       316.0  Rx         003E  3  1D E6 44 
   441)       317.4  Rx         003B  5  00 00 00 E3 23 
   442)       318.0  Rx         0120  8  00 00 00 00 10 10 00 49 
   443)       318.9  Rx         0039  4  23 00 10 70 
   444)       320.1  Rx         0038  7  80 00 08 00 00 00 C7 
   445)       320.3  Rx         0020  3  00 00 07 
   446)       320.5  Rx         0030  8  04 00 00 00 00 20 00 5C 
   447)       320.7  Rx         00B1  6  00 00 00 00 11 C8 
   448)       321.0  Rx         00B4  8  00 00 00 00 00 00 00 BC 
   449)       322.1  Rx         003A  7  00 00 00 00 04 00 45 
   450)       324.1  Rx         003E  3  1D E6 44 
   451)       325.5  Rx         003B  5  00 00 00 E3 23 
   452)       326.2  Rx         0529  6  27 00 00 06 00 00 
   453)       327.0  Rx         0030  8  04 00 00 00 00 20 00 5C 
   454)       327.2  Rx         0039  4  23 00 10 70 
   455)       327.4  Rx         00B3  6  00 00 00 00 11 CA 
   456)       328.3  Rx         0038  7  80 00 08 00 00 00 C7 
   457)       329.5  Rx         04D1  8  11 00 01 02 00 00 00 00 
   458)       330.3  Rx         003A  7  00 00 00 00 04 00 45 
   459)       330.4  Rx         0527  3  24 00 00 
   460)       331.6  Rx         0262  4  00 01 00 69 
   461)       332.3  Rx         003E  3  1D E6 44 
   462)       332.5  Rx         05C8  3  24 00 00 
   463)       333.0  Rx         0020  3  00 00 07 
   464)       333.2  Rx         0030  8  04 00 00 00 00 20 00 5C 
   465)       333.4  Rx         00B1  6  00 00 00 00 11 C8 
   466)       333.6  Rx         003B  5  00 00 00 E3 23 
   467)       333.8  Rx         00B4  8  00 00 00 00 00 00 00 BC 
   468)       334.1  Rx         0230  7  00 05 00 00 00 00 3E 
   469)       334.4  Rx         04C3  8  03 00 03 00 00 00 00 00 
   470)       334.6  Rx         0120  8  00 00 00 00 10 10 00 49 
   471)       335.3  Rx         0039  4  23 00 10 70 
   472)       336.4  Rx         03C8  5  00 34 00 00 04 
   473)       336.6  Rx         0038  7  80 00 08 00 00 00 C7 
   474)       336.9  Rx         0244  8  10 00 00 00 00 00 00 5E 
   475)       338.5  Rx         003A  7  00 00 00 00 04 00 45 
   476)       339.6  Rx         0030  8  04 00 00 00 00 20 00 5C 
   477)       339.8  Rx         00B3  6  00 00 00 00 11 CA 
   478)       340.5  Rx         003E  3  1D E6 44 
   479)       341.5  Rx         003B  5  00 00 00 E3 23 
   480)       342.5  Rx         0528  4  25 00 00 00 
   481)       343.5  Rx         0039  4  23 00 10 70 
   482)       344.7  Rx         0038  7  80 00 08 00 00 00 C7 
   483)       344.9  Rx         05EC  7  28 00 00 00 00 00 00 
   484)       345.6  Rx         0020  3  00 00 07 
   485)       345.8  Rx         0030  8  04 00 00 00 00 20 00 5C 
   486)       346.0  Rx         00B1  6  00 00 00 00 11 C8 
   487)       346.2  Rx         00B4  8  00 00 00 00 00 00 00 BC 
   488)       346.6  Rx         03CF  5  10 0F 1D 00 13 
   489)       346.8  Rx         003A  7  00 00 00 00 04 00 45 
   490)       348.7  Rx         003E  3  1D E6 44 
   491)       349.5  Rx         003B  5  00 00 00 E3 23 
   492)       350.8  Rx         0120  8  00 00 00 00 10 10 00 49 
   493)       351.0  Rx         03CA  5  00 20 00 00 F2 
   494)       351.7  Rx         0039  4  23 00 10 70 
   495)       352.0  Rx         0262  4  00 01 00 69 
   496)       352.6  Rx         0030  8  04 00 00 00 00 20 00 5C 
   497)       352.8  Rx         00B3  6  00 00 00 00 11 CA 
   498)       353.0  Rx         0038  7  80 00 08 00 00 00 C7 
   499)       354.9  Rx         003A  7  00 00 00 00 04 00 45 
   500)       355.1  Rx         0348  6  00 01 00 00 00 52 
   501)       356.9  Rx         003E  3  1D E6 44 
   502)       357.5  Rx         003B  5  00 00 00 E4 24 
   503)       358.5  Rx         0020  3  00 00 07 
   504)       358.8  Rx         0030  8  04 00 00 00 00 20 00 5C 
   505)       359.0  Rx         00B1  6  00 00 00 00 11 C8 
   506)       359.2  Rx         00B4  8  00 00 00 00 00 00 00 BC 
   507)       359.5  Rx         0230  7  00 05 00 00 00 00 3E 
   508)       359.9  Rx         0039  4  23 00 10 70 
   509)       361.1  Rx         0038  7  80 00 08 00 00 00 C7 
   510)       361.4  Rx         0244  8  10 00 00 00 00 00 00 5E 
   511)       363.1  Rx         003A  7  00 00 00 00 04 00 45 
   512)       365.1  Rx         003E  3  1D E6 44 
   513)       365.3  Rx         0030  8  04 00 00 00 00 20 00 5C 
   514)       365.5  Rx         003B  5  00 00 00 E4 24 
   515)       365.7  Rx         00B3  6  00 00 00 00 11 CA 
   516)       366.0  Rx         03C9  8  03 FF 21 02 9B 03 21 B8 
   517)       367.2  Rx         0120  8  00 00 00 00 10 10 00 49 
   518)       368.1  Rx         0039  4  23 00 10 70 
   519)       369.2  Rx         0038  7  80 00 08 00 00 00 C7 
   520)       371.2  Rx         003A  7  00 00 00 00 04 00 45 
   521)       371.4  Rx         0020  3  00 00 07 
   522)       371.7  Rx         0030  8  04 00 00 00 00 20 00 5C 
   523)       371.8  Rx         00B1  6  00 00 00 00 11 C8 
   524)       372.1  Rx         00B4  8  00 00 00 00 00 00 00 BC 
   525)       372.3  Rx         0262  4  00 01 00 69 
   526)       373.3  Rx         003E  3  1D E6 44 
   527)       373.5  Rx         003B  5  00 00 00 E4 24 
   528)       373.7  Rx         03CB  7  64 64 00 81 11 10 3F 
   529)       376.3  Rx         0039  4  23 00 10 70 
   530)       377.4  Rx         0038  7  80 00 08 00 00 00 C7 
   531)       377.9  Rx         0030  8  04 00 00 00 00 20 00 5C 
   532)       378.1  Rx         00B3  6  00 00 00 00 11 CA 
   533)       379.5  Rx         003A  7  00 00 00 00 04 00 45 
   534)       381.4  Rx         003E  3  1D E6 44 
   535)       381.6  Rx         003B  5  00 00 00 E3 23 
   536)       381.8  Rx         03CD  5  00 00 00 E3 B8 
   537)       382.4  Rx         0526  3  24 00 00 
   538)       383.6  Rx         0120  8  00 00 00 00 10 10 00 49 
   539)       383.9  Rx         0020  3  00 00 07 
   540)       384.1  Rx         0030  8  04 00 00 00 00 20 00 5C 
   541)       384.3  Rx         00B1  6  00 00 00 00 11 C8 
   542)       384.6  Rx         00B4  8  00 00 00 00 00 00 00 BC 
   543)       384.7  Rx         0039  4  23 00 10 70 
   544)       384.9  Rx         0230  7  00 05 00 00 00 00 3E 
   545)       385.7  Rx         0038  7  80 00 08 00 00 00 C7 
   546)       386.0  Rx         0244  8  10 00 00 00 00 00 00 5E 
   547)       387.6  Rx         003A  7  00 00 00 00 04 00 45 
   548)       389.5  Rx         003B  5  00 00 00 E3 23 
   549)       389.6  Rx         003E  3  1D E6 44 
   550)       390.8  Rx         0030  8  04 00 00 00 00 20 00 5C 
   551)       391.0  Rx         00B3  6  00 00 00 00 11 CA 
   552)       391.8  Rx         0262  4  00 01 00 69 
   553)       392.7  Rx         0039  4  23 00 10 70 
   554)       393.9  Rx         0038  7  80 00 08 00 00 00 C7 
   555)       395.8  Rx         003A  7  00 00 00 00 04 00 45 
   556)       396.0  Rx         0348  6  00 01 00 00 00 52 
   557)       396.8  Rx         0020  3  00 00 07 
   558)       397.1  Rx         0030  8  04 00 00 00 00 20 00 5C 
   559)       397.2  Rx         00B1  6  00 00 00 00 11 C8 
   560)       397.5  Rx         00B4  8  00 00 00 00 00 00 00 BC 
   561)       397.7  Rx         003B  5  00 00 00 E3 23 
   562)       397.8  Rx         003E  3  1D E6 44 
   563)       400.0  Rx         0120  8  00 00 00 00 10 10 00 49 
   564)       400.9  Rx         0039  4  23 00 10 70 
   565)       401.1  Rx         0484  5  00 38 00 09 0C 
   566)       401.9  Rx         03C8  5  00 34 00 00 04 
   567)       402.2  Rx         0038  7  80 00 08 00 00 00 C7 
   568)       403.8  Rx         0030  8  04 00 00 00 00 20 00 5C 
   569)       404.1  Rx         003A  7  00 00 00 00 04 00 45 
   570)       404.3  Rx         00B3  6  00 00 00 00 11 CA 
   571)       405.5  Rx         003B  5  00 00 00 E4 24 
   572)       406.0  Rx         003E  3  1D E6 44 
   573)       409.1  Rx         0039  4  23 00 10 70 
   574)       409.8  Rx         0020  3  00 00 07 
   575)       410.1  Rx         0030  8  04 00 00 00 00 20 00 5C 
   576)       410.3  Rx         0038  7  80 00 08 00 00 00 C7 
   577)       410.5  Rx         00B1  6  00 00 00 00 11 C8 
   578)       410.8  Rx         00B4  8  00 00 00 00 00 00 00 BC 
   579)       411.1  Rx         0244  8  10 00 00 00 00 00 00 5E 
   580)       411.2  Rx         0230  7  00 05 00 00 00 00 3E 
   581)       411.9  Rx         0262  4  00 01 00 69 
   582)       412.3  Rx         003A  7  00 00 00 00 04 00 45 
   583)       413.5  Rx         003B  5  00 00 00 E3 23 
   584)       414.2  Rx         003E  3  1D E6 44 
   585)       416.3  Rx         0120  8  00 00 00 00 10 10 00 49 
   586)       416.6  Rx         0030  8  04 00 00 00 00 20 00 5C 
   587)       416.9  Rx         00B3  6  00 00 00 00 11 CA 
   588)       417.3  Rx         0039  4  23 00 10 70 
   589)       418.4  Rx         0038  7  80 00 08 00 00 00 C7 
   590)       420.4  Rx         003A  7  00 00 00 00 04 00 45 
   591)       421.5  Rx         003B  5  00 00 00 E3 23 
   592)       422.4  Rx         003E  3  1D E6 44 
   593)       422.6  Rx         0020  3  00 00 07 
   594)       422.8  Rx         0030  8  04 00 00 00 00 20 00 5C 
   595)       423.0  Rx         00B1  6  00 00 00 00 11 C8 
   596)       423.3  Rx         00B4  8  00 00 00 00 00 00 00 BC 
   597)       425.5  Rx         0039  4  23 00 10 70 
   598)       426.6  Rx         0038  7  80 00 08 00 00 00 C7 
   599)       428.6  Rx         003A  7  00 00 00 00 04 00 45 
   600)       429.4  Rx         0030  8  04 00 00 00 00 20 00 5C 
   601)       429.6  Rx         003B  5  00 00 00 E3 23 
   602)       429.8  Rx         00B3  6  00 00 00 00 11 CA 
   603)       430.6  Rx         003E  3  1D E6 44 
   604)       431.8  Rx         0262  4  00 01 00 69 
   605)       432.8  Rx         0120  8  00 00 00 00 10 10 00 49 
   606)       433.7  Rx         0039  4  23 00 10 70 
   607)       434.8  Rx         0038  7  80 00 08 00 00 00 C7 
   608)       435.1  Rx         0244  8  10 00 00 00 00 00 00 5E 
   609)       435.4  Rx         0020  3  00 00 07 
   610)       435.6  Rx         0030  8  04 00 00 00 00 20 00 5C 
   611)       435.8  Rx         00B1  6  00 00 00 00 11 C8 
   612)       436.0  Rx         00B4  8  00 00 00 00 00 00 00 BC 
   613)       436.3  Rx         0230  7  00 05 00 00 00 00 3E 
   614)       436.8  Rx         003A  7  00 00 00 00 04 00 45 
   615)       437.0  Rx         0348  6  00 01 00 00 00 52 
   616)       437.5  Rx         003B  5  00 00 00 E3 23 
   617)       438.8  Rx         003E  3  1D E6 44 
   618)       441.9  Rx         0039  4  23 00 10 70 
   619)       442.2  Rx         0030  8  04 00 00 00 00 20 00 5C 
   620)       442.4  Rx         00B3  6  00 00 00 00 11 CA 
   621)       443.0  Rx         0038  7  80 00 08 00 00 00 C7 
   622)       445.0  Rx         003A  7  00 00 00 00 04 00 45 
   623)       445.5  Rx         003B  5  00 00 00 E3 23 
   624)       447.0  Rx         003E  3  1D E6 44 
   625)       448.1  Rx         0020  3  00 00 07 
   626)       448.4  Rx         0030  8  04 00 00 00 00 20 00 5C 
   627)       448.6  Rx         00B1  6  00 00 00 00 11 C8 
   628)       448.8  Rx         00B4  8  00 00 00 00 00 00 00 BC 
   629)       449.1  Rx         0120  8  00 00 00 00 10 10 00 49 
   630)       450.0  Rx         0039  4  23 00 10 70 
   631)       451.2  Rx         0038  7  80 00 08 00 00 00 C7 
   632)       451.4  Rx         03CA  5  00 20 00 00 F2 
   633)       451.9  Rx         0262  4  00 01 00 69 
   634)       453.2  Rx         003A  7  00 00 00 00 04 00 45 
   635)       453.5  Rx         003B  5  00 00 00 E3 23 
   636)       455.2  Rx         0030  8  04 00 00 00 00 20 00 5C 
   637)       455.3  Rx         003E  3  1D E6 44 
   638)       455.6  Rx         00B3  6  00 00 00 00 11 CA 
   639)       458.2  Rx         0039  4  23 00 10 70 
   640)       459.3  Rx         0038  7  80 00 08 00 00 00 C7 
   641)       459.6  Rx         0244  8  10 00 00 00 00 00 00 5E 
   642)       461.1  Rx         0020  3  00 00 07 
   643)       461.4  Rx         0030  8  04 00 00 00 00 20 00 5C 
   644)       461.6  Rx         003A  7  00 00 00 00 04 00 45 
   645)       461.8  Rx         003B  5  00 00 00 E4 24 
   646)       462.0  Rx         00B1  6  00 00 00 00 11 C8 
   647)       462.2  Rx         00B4  8  00 00 00 00 00 00 00 BC 
   648)       462.5  Rx         0230  7  00 05 00 00 00 00 3E 
   649)       463.4  Rx         003E  3  1D E6 44 
   650)       465.4  Rx         0120  8  00 00 00 00 10 10 00 49 
   651)       465.7  Rx         03C9  8  03 FF 21 02 9B 03 21 B8 
   652)       466.4  Rx         0039  4  23 00 10 70 
   653)       467.5  Rx         03C8  5  00 34 00 00 04 
   654)       467.7  Rx         0038  7  80 00 08 00 00 00 C7 
   655)       468.0  Rx         0030  8  04 00 00 00 00 20 00 5C 
   656)       468.2  Rx         00B3  6  00 00 00 00 11 CA 
   657)       468.3  Rx         0591  4  25 A0 1C 06 
   658)       469.5  Rx         003B  5  00 00 00 E4 24 
   659)       469.8  Rx         003A  7  00 00 00 00 04 00 45 
   660)       471.5  Rx         003E  3  1D E6 44 
   661)       471.7  Rx         0262  4  00 01 00 69 
   662)       471.8  Rx         0521  2  23 00 
   663)       473.6  Rx         03CB  7  64 64 00 81 11 10 3F 
   664)       473.9  Rx         0020  3  00 00 07 
   665)       474.1  Rx         0030  8  04 00 00 00 00 20 00 5C 
   666)       474.3  Rx         00B1  6  00 00 00 00 11 C8 
   667)       474.5  Rx         00B4  8  00 00 00 00 00 00 00 BC 
   668)       474.7  Rx         0039  4  23 00 10 70 
   669)       475.8  Rx         0038  7  80 00 08 00 00 00 C7 
   670)       476.8  Rx         0554  7  58 41 42 4C 41 45 4E 
   671)       477.5  Rx         003B  5  00 00 00 E3 23 
   672)       477.7  Rx         003A  7  00 00 00 00 04 00 45 
   673)       477.9  Rx         0348  6  00 01 00 00 00 52 
   674)       478.1  Rx         03CF  5  10 0F 1D 00 13 
   675)       479.7  Rx         003E  3  1D E6 44 
   676)       480.6  Rx         0030  8  04 00 00 00 00 20 00 5C 
   677)       480.8  Rx         00B3  6  00 00 00 00 11 CA 
   678)       481.5  Rx         03CD  5  00 00 00 E2 B7 
   679)       481.9  Rx         0120  8  00 00 00 00 10 10 00 49 
   680)       482.8  Rx         0039  4  23 00 10 70 
   681)       483.9  Rx         0038  7  80 00 08 00 00 00 C7 
   682)       484.2  Rx         0244  8  10 00 00 00 00 00 00 5E 
   683)       485.5  Rx         003B  5  00 00 00 E3 23 
   684)       485.9  Rx         003A  7  00 00 00 00 04 00 45 
   685)       486.6  Rx         0020  3  00 00 07 
   686)       486.8  Rx         0030  8  04 00 00 00 00 20 00 5C 
   687)       487.0  Rx         00B1  6  00 00 00 00 11 C8 
   688)       487.2  Rx         00B4  8  00 00 00 00 00 00 00 BC 
   689)       487.5  Rx         0230  7  00 05 00 00 00 00 3E 
   690)       487.9  Rx         003E  3  1D E6 44 
   691)       491.0  Rx         0039  4  23 00 10 70 
   692)       491.9  Rx         0262  4  00 01 00 69 
   693)       492.2  Rx         0038  7  80 00 08 00 00 00 C7 
   694)       493.3  Rx         0030  8  04 00 00 00 00 20 00 5C 
   695)       493.5  Rx         00B3  6  00 00 00 00 11 CA 
   696)       493.7  Rx         003B  5  00 00 00 E3 23 
   697)       494.2  Rx         003A  7  00 00 00 00 04 00 45 
   698)       496.1  Rx         003E  3  1D E6 44 
   699)       498.2  Rx         0120  8  00 00 00 00 10 10 00 49 
   700)       499.2  Rx         0039  4  23 00 10 70 
   701)       499.4  Rx         0020  3  00 00 07 
   702)       499.6  Rx         0030  8  04 00 00 00 00 20 00 5C 
   703)       499.8  Rx         00B1  6  00 00 00 00 11 C8 
   704)       500.0  Rx         00B4  8  00 00 00 00 00 00 00 BC 
   705)       500.3  Rx         0038  7  80 00 08 00 00 00 C7 
   706)       501.5  Rx         003B  5  00 00 00 E4 24 
   707)       502.3  Rx         0553  7  58 49 00 08 00 00 00 
   708)       502.5  Rx         003A  7  00 00 00 00 04 00 45 
   709)       504.3  Rx         003E  3  1D E6 44 
   710)       506.2  Rx         0030  8  04 00 00 00 00 20 00 5C 
   711)       506.4  Rx         00B3  6  00 00 00 00 11 CA 
   712)       507.4  Rx         0039  4  23 00 10 70 
   713)       508.5  Rx         0038  7  80 00 08 00 00 00 C7 
   714)       508.8  Rx         0244  8  10 00 00 00 00 00 00 5E 
   715)       509.6  Rx         003B  5  00 00 00 E4 24 
   716)       510.5  Rx         003A  7  00 00 00 00 04 00 45 
   717)       511.8  Rx         0262  4  00 01 00 69 
   718)       512.2  Rx         0020  3  00 00 07 
   719)       512.5  Rx         0030  8  04 00 00 00 00 20 00 5C 
   720)       512.6  Rx         003E  3  1D E6 44 
   721)       512.8  Rx         00B1  6  00 00 00 00 11 C8 
   722)       513.1  Rx         00B4  8  00 00 00 00 00 00 00 BC 
   723)       513.3  Rx         0230  7  00 05 00 00 00 00 3E 
   724)       514.7  Rx         0120  8  00 00 00 00 10 10 00 49 
   725)       515.6  Rx         0039  4  23 00 10 70 
   726)       516.7  Rx         0038  7  80 00 08 00 00 00 C7 
   727)       517.5  Rx         003B  5  00 00 00 E3 23 
   728)       518.7  Rx         003A  7  00 00 00 00 04 00 45 
   729)       518.9  Rx         0348  6  00 01 00 00 00 52 
   730)       519.2  Rx         0030  8  04 00 00 00 00 20 00 5C 
   731)       519.4  Rx         00B3  6  00 00 00 00 11 CA 
   732)       520.7  Rx         003E  3  1D E6 44 
   733)       523.8  Rx         0039  4  23 00 10 70 
   734)       524.9  Rx         0038  7  80 00 08 00 00 00 C7 
   735)       525.0  Rx         0020  3  00 00 07 
   736)       525.3  Rx         0030  8  04 00 00 00 00 20 00 5C 
   737)       525.5  Rx         00B1  6  00 00 00 00 11 C8 
   738)       525.7  Rx         003B  5  00 00 00 E3 23 
   739)       525.9  Rx         00B4  8  00 00 00 00 00 00 00 BC 
   740)       526.9  Rx         003A  7  00 00 00 00 04 00 45 
   741)       528.9  Rx         003E  3  1D E6 44 
   742)       531.0  Rx         0120  8  00 00 00 00 10 10 00 49 
   743)       531.6  Rx         0030  8  04 00 00 00 00 20 00 5C 
   744)       531.8  Rx         00B3  6  00 00 00 00 11 CA 
   745)       532.0  Rx         0262  4  00 01 00 69 
   746)       532.1  Rx         0039  4  23 00 10 70 
   747)       533.0  Rx         03C8  5  00 34 00 00 04 
   748)       533.3  Rx         0038  7  80 00 08 00 00 00 C7 
   749)       533.5  Rx         0244  8  10 00 00 00 00 00 00 5E 
   750)       533.7  Rx         003B  5  00 00 00 E3 23 
   751)       535.1  Rx         003A  7  00 00 00 00 04 00 45 
   752)       537.1  Rx         003E  3  1D E6 44 
   753)       537.6  Rx         0020  3  00 00 07 
   754)       537.8  Rx         0030  8  04 00 00 00 00 20 00 5C 
   755)       538.0  Rx         00B1  6  00 00 00 00 11 C8 
   756)       538.3  Rx         00B4  8  00 00 00 00 00 00 00 BC 
   757)       538.5  Rx         0230  7  00 05 00 00 00 00 3E 
   758)       539.6  Rx         056D  4  65 68 80 7F 
   759)       540.2  Rx         0039  4  23 00 10 70 
   760)       541.3  Rx         0038  7  80 00 08 00 00 00 C7 
   761)       541.6  Rx         003B  5  00 00 00 E3 23 
   762)       543.3  Rx         003A  7  00 00 00 00 04 00 45 
   763)       544.3  Rx         0030  8  04 00 00 00 00 20 00 5C 
   764)       544.5  Rx         00B3  6  00 00 00 00 11 CA 
   765)       545.3  Rx         003E  3  1D E6 44 
   766)       547.4  Rx         0120  8  00 00 00 00 10 10 00 49 
   767)       547.9  Rx         04CE  8  0F 00 01 01 00 00 00 00 
   768)       548.4  Rx         0039  4  23 00 10 70 
   769)       549.5  Rx         0038  7  80 00 08 00 00 00 C7 
   770)       549.7  Rx         003B  5  00 00 00 E3 23 
   771)       550.3  Rx         0020  3  00 00 07 
   772)       550.5  Rx         0030  8  04 00 00 00 00 20 00 5C 
   773)       550.7  Rx         00B1  6  00 00 00 00 11 C8 
   774)       550.9  Rx         00B4  8  00 00 00 00 00 00 00 BC 
   775)       551.5  Rx         003A  7  00 00 00 00 04 00 45 
   776)       551.7  Rx         03CA  5  00 20 00 00 F2 
   777)       551.9  Rx         0262  4  00 01 00 69 
   778)       553.5  Rx         003E  3  1D E6 44 
   779)       553.6  Rx         05CC  3  24 01 C0 
   780)       556.6  Rx         0039  4  23 00 10 70 
   781)       557.3  Rx         0030  8  04 00 00 00 00 20 00 5C 
   782)       557.5  Rx         00B3  6  00 00 00 00 11 CA 
   783)       557.7  Rx         0038  7  80 00 08 00 00 00 C7 
   784)       557.9  Rx         003B  5  00 00 00 E4 24 
   785)       558.1  Rx         0244  8  10 00 00 00 00 00 00 5E 
   786)       559.7  Rx         003A  7  00 00 00 00 04 00 45 
   787)       559.9  Rx         0348  6  00 01 00 00 00 52 
   788)       561.7  Rx         003E  3  1D E6 44 
   789)       563.1  Rx         0020  3  00 00 07 
   790)       563.4  Rx         0030  8  04 00 00 00 00 20 00 5C 
   791)       563.6  Rx         00B1  6  00 00 00 00 11 C8 
   792)       563.9  Rx         00B4  8  00 00 00 00 00 00 00 BC 
   793)       564.1  Rx         0120  8  00 00 00 00 10 10 00 49 
   794)       564.3  Rx         0230  7  00 05 00 00 00 00 3E 
   795)       564.8  Rx         0039  4  23 00 10 70 
   796)       565.6  Rx         003B  5  00 00 00 E4 24 
   797)       565.9  Rx         03C9  8  03 FF 21 02 9B 03 21 B8 
   798)       566.0  Rx         0038  7  80 00 08 00 00 00 C7 
   799)       567.8  Rx         003A  7  00 00 00 00 04 00 45 
   800)       569.8  Rx         0030  8  04 00 00 00 00 20 00 5C 
   801)       570.0  Rx         003E  3  1D E6 44 
   802)       570.2  Rx         00B3  6  00 00 00 00 11 CA 
   803)       571.8  Rx         0262  4  00 01 00 69 
   804)       573.0  Rx         0039  4  23 00 10 70 
   805)       573.6  Rx         003B  5  00 00 00 E4 24 
   806)       573.8  Rx         03CB  7  64 64 00 81 11 10 3F 
   807)       574.1  Rx         0038  7  80 00 08 00 00 00 C7 
   808)       575.8  Rx         0020  3  00 00 07 
   809)       576.1  Rx         0030  8  04 00 00 00 00 20 00 5C 
   810)       576.2  Rx         003A  7  00 00 00 00 04 00 45 
   811)       576.5  Rx         00B1  6  00 00 00 00 11 C8 
   812)       576.7  Rx         00B4  8  00 00 00 00 00 00 00 BC 
   813)       578.1  Rx         003E  3  1D E6 44 
   814)       580.1  Rx         0120  8  00 00 00 00 10 10 00 49 
   815)       581.2  Rx         0039  4  23 00 10 70 
   816)       581.3  Rx         052C  2  23 46 
   817)       581.6  Rx         003B  5  00 00 00 E3 23 
   818)       581.8  Rx         03CD  5  00 00 00 E3 B8 
   819)       582.3  Rx         0038  7  80 00 08 00 00 00 C7 
   820)       582.5  Rx         0244  8  10 00 00 00 00 00 00 5E 
   821)       582.8  Rx         0030  8  04 00 00 00 00 20 00 5C 
   822)       583.0  Rx         00B3  6  00 00 00 00 11 CA 
   823)       584.3  Rx         003A  7  00 00 00 00 04 00 45 
   824)       586.2  Rx         003E  3  1D E6 44 
   825)       588.5  Rx         0020  3  00 00 07 
   826)       588.8  Rx         0030  8  04 00 00 00 00 20 00 5C 
   827)       589.0  Rx         00B1  6  00 00 00 00 11 C8 
   828)       589.2  Rx         00B4  8  00 00 00 00 00 00 00 BC 
   829)       589.4  Rx         0039  4  23 00 10 70 
   830)       589.6  Rx         0230  7  00 05 00 00 00 00 3E 
   831)       589.8  Rx         003B  5  00 00 00 E4 24 
   832)       590.5  Rx         0038  7  80 00 08 00 00 00 C7 
   833)       591.3  Rx         05D4  2  23 00 
   834)       591.9  Rx         0262  4  00 01 00 69 
   835)       592.4  Rx         003A  7  00 00 00 00 04 00 45 
   836)       594.4  Rx         003E  3  1D E6 44 
   837)       595.3  Rx         0030  8  04 00 00 00 00 20 00 5C 
   838)       595.5  Rx         00B3  6  00 00 00 00 11 CA 
   839)       596.6  Rx         0120  8  00 00 00 00 10 10 00 49 
   840)       597.5  Rx         0039  4  23 00 10 70 
   841)       597.7  Rx         003B  5  00 00 00 E3 23 
   842)       598.6  Rx         0038  7  80 00 08 00 00 00 C7 
   843)       598.8  Rx         03C8  5  00 34 00 00 04 
   844)       600.6  Rx         003A  7  00 00 00 00 04 00 45 
   845)       600.8  Rx         0348  6  00 01 00 00 00 52 
   846)       600.9  Rx         05F8  2  23 04 
   847)       601.2  Rx         0020  3  00 00 07 
   848)       601.5  Rx         0030  8  04 00 00 00 00 20 00 5C 
   849)       601.7  Rx         00B1  6  00 00 00 00 11 C8 
   850)       601.9  Rx         00B4  8  00 00 00 00 00 00 00 BC 
   851)       602.7  Rx         003E  3  1D E6 44 
   852)       605.6  Rx         003B  5  00 00 00 E4 24 
   853)       605.8  Rx         0039  4  23 00 10 70 
   854)       606.8  Rx         0038  7  80 00 08 00 00 00 C7 
   855)       607.1  Rx         0244  8  10 00 00 00 00 00 00 5E 
   856)       608.2  Rx         0030  8  04 00 00 00 00 20 00 5C 
   857)       608.5  Rx         00B3  6  00 00 00 00 11 CA 
   858)       608.8  Rx         003A  7  00 00 00 00 04 00 45 
   859)       609.0  Rx         03CF  5  10 0F 1D 00 13 
   860)       610.8  Rx         003E  3  1D E6 44 
   861)       611.9  Rx         0262  4  00 01 00 69 
   862)       612.9  Rx         0120  8  00 00 00 00 10 10 00 49 
   863)       613.6  Rx         003B  5  00 00 00 E4 24 
   864)       613.9  Rx         0039  4  23 00 10 70 
   865)       614.2  Rx         0020  3  00 00 07 
   866)       614.4  Rx         0030  8  04 00 00 00 00 20 00 5C 
   867)       614.6  Rx         00B1  6  00 00 00 00 11 C8 
   868)       614.9  Rx         00B4  8  00 00 00 00 00 00 00 BC 
   869)       615.1  Rx         0038  7  80 00 08 00 00 00 C7 
   870)       615.4  Rx         0230  7  00 05 00 00 00 00 3E 
   871)       617.0  Rx         003A  7  00 00 00 00 04 00 45 
   872)       619.0  Rx         003E  3  1D E6 44 
   873)       621.0  Rx         0030  8  04 00 00 00 00 20 00 5C 
   874)       621.2  Rx         00B3  6  00 00 00 00 11 CA 
   875)       621.6  Rx         003B  5  00 00 00 E3 23 
   876)       622.1  Rx         0039  4  23 00 10 70 
   877)       623.2  Rx         0038  7  80 00 08 00 00 00 C7 
   878)       625.2  Rx         003A  7  00 00 00 00 04 00 45 
   879)       626.9  Rx         0020  3  00 00 07 
   880)       627.1  Rx         0030  8  04 00 00 00 00 20 00 5C 
   881)       627.3  Rx         003E  3  1D E6 44 
   882)       627.5  Rx         00B1  6  00 00 00 00 11 C8 
   883)       627.7  Rx         00B4  8  00 00 00 00 00 00 00 BC 
   884)       629.3  Rx         0120  8  00 00 00 00 10 10 00 49 
   885)       629.6  Rx         003B  5  00 00 00 E3 23 
   886)       630.3  Rx         0039  4  23 00 10 70 
   887)       631.4  Rx         0038  7  80 00 08 00 00 00 C7 
   888)       631.6  Rx         0244  8  10 00 00 00 00 00 00 5E 
   889)       631.9  Rx         0262  4  00 01 00 69 
   890)       633.4  Rx         003A  7  00 00 00 00 04 00 45 
   891)       633.6  Rx         0030  8  04 00 00 00 00 20 00 5C 
   892)       633.8  Rx         00B3  6  00 00 00 00 11 CA 
   893)       635.4  Rx         003E  3  1D E6 44 
   894)       637.6  Rx         003B  5  00 00 00 E3 23 
   895)       638.5  Rx         0039  4  23 00 10 70 
   896)       639.6  Rx         0038  7  80 00 08 00 00 00 C7 
   897)       639.7  Rx         0020  3  00 00 07 
   898)       640.0  Rx         0030  8  04 00 00 00 00 20 00 5C 
   899)       640.2  Rx         00B1  6  00 00 00 00 11 C8 
   900)       640.5  Rx         00B4  8  00 00 00 00 00 00 00 BC 
   901)       640.7  Rx         0230  7  00 05 00 00 00 00 3E 
   902)       641.6  Rx         003A  7  00 00 00 00 04 00 45 
   903)       641.8  Rx         0348  6  00 01 00 00 00 52 
   904)       643.6  Rx         003E  3  1D E6 44 
   905)       645.6  Rx         003B  5  00 00 00 E3 23 
   906)       645.9  Rx         0120  8  00 00 00 00 10 10 00 49 
   907)       646.3  Rx         0030  8  04 00 00 00 00 20 00 5C 
   908)       646.5  Rx         00B3  6  00 00 00 00 11 CA 
   909)       646.7  Rx         0039  4  23 00 10 70 
   910)       647.8  Rx         0038  7  80 00 08 00 00 00 C7 
   911)       649.8  Rx         003A  7  00 00 00 00 04 00 45 
   912)       651.6  Rx         0262  4  00 01 00 69 
   913)       651.8  Rx         003E  3  1D E6 44 
   914)       651.9  Rx         03CA  5  00 20 00 00 F2 
   915)       652.3  Rx         0020  3  00 00 07 
   916)       652.5  Rx         0030  8  04 00 00 00 00 20 00 5C 
   917)       652.7  Rx         00B1  6  00 00 00 00 11 C8 
   918)       653.0  Rx         00B4  8  00 00 00 00 00 00 00 BC 
   919)       653.6  Rx         003B  5  00 00 00 E3 23 
   920)       654.9  Rx         0039  4  23 00 10 70 
   921)       656.0  Rx         0038  7  80 00 08 00 00 00 C7 
   922)       656.2  Rx         0244  8  10 00 00 00 00 00 00 5E 
   923)       657.9  Rx         003A  7  00 00 00 00 04 00 45 
   924)       659.4  Rx         0030  8  04 00 00 00 00 20 00 5C 
   925)       659.5  Rx         00B3  6  00 00 00 00 11 CA 
   926)       660.0  Rx         003E  3  1D E6 44 
   927)       661.6  Rx         003B  5  00 00 00 E4 24 
   928)       662.1  Rx         0120  8  00 00 00 00 10 10 00 49 
   929)       663.1  Rx         0039  4  23 00 10 70 
   930)       664.1  Rx         0038  7  80 00 08 00 00 00 C7 
   931)       664.3  Rx         03C8  5  00 34 00 00 04 
   932)       665.3  Rx         0020  3  00 00 07 
   933)       665.5  Rx         0030  8  04 00 00 00 00 20 00 5C 
   934)       665.8  Rx         00B1  6  00 00 00 00 11 C8 
   935)       666.0  Rx         00B4  8  00 00 00 00 00 00 00 BC 
   936)       666.2  Rx         003A  7  00 00 00 00 04 00 45 
   937)       666.4  Rx         0230  7  00 05 00 00 00 00 3E 
   938)       666.7  Rx         03C9  8  03 FF 21 02 9B 03 21 B8 
   939)       668.2  Rx         003E  3  1D E6 44 
   940)       669.6  Rx         003B  5  00 00 00 E4 24 
   941)       671.3  Rx         0039  4  23 00 10 70 
   942)       671.9  Rx         0030  8  04 00 00 00 00 20 00 5C 
   943)       672.1  Rx         00B3  6  00 00 00 00 11 CA 
   944)       672.3  Rx         0262  4  00 01 00 69 
   945)       672.5  Rx         0038  7  80 00 08 00 00 00 C7 
   946)       673.6  Rx         03CB  7  64 64 00 81 11 10 3F 
   947)       674.4  Rx         003A  7  00 00 00 00 04 00 45 
   948)       676.3  Rx         003E  3  1D E6 44 
   949)       677.6  Rx         003B  5  00 00 00 E3 23 
   950)       677.9  Rx         0020  3  00 00 07 
   951)       678.1  Rx         0030  8  04 00 00 00 00 20 00 5C 
   952)       678.3  Rx         00B1  6  00 00 00 00 11 C8 
   953)       678.6  Rx         00B4  8  00 00 00 00 00 00 00 BC 
   954)       678.8  Rx         0120  8  00 00 00 00 10 10 00 49 
   955)       679.5  Rx         0039  4  23 00 10 70 
   956)       680.6  Rx         0038  7  80 00 08 00 00 00 C7 
   957)       680.8  Rx         0244  8  10 00 00 00 00 00 00 5E 
   958)       681.6  Rx         03CD  5  00 00 00 E3 B8 
   959)       682.5  Rx         003A  7  00 00 00 00 04 00 45 
   960)       682.7  Rx         0348  6  00 01 00 00 00 52 
   961)       684.5  Rx         003E  3  1D E6 44 
   962)       684.8  Rx         0030  8  04 00 00 00 00 20 00 5C 
   963)       685.0  Rx         00B3  6  00 00 00 00 11 CA 
   964)       685.6  Rx         003B  5  00 00 00 E3 23 
   965)       687.6  Rx         0039  4  23 00 10 70 
   966)       688.7  Rx         0038  7  80 00 08 00 00 00 C7 
   967)       690.7  Rx         003A  7  00 00 00 00 04 00 45 
   968)       690.8  Rx         0020  3  00 00 07 
   969)       691.1  Rx         0030  8  04 00 00 00 00 20 00 5C 
   970)       691.3  Rx         00B1  6  00 00 00 00 11 C8 
   971)       691.6  Rx         00B4  8  00 00 00 00 00 00 00 BC 
   972)       691.7  Rx         0262  4  00 01 00 69 
   973)       692.0  Rx         0230  7  00 05 00 00 00 00 3E 
   974)       692.7  Rx         003E  3  1D E6 44 
   975)       693.6  Rx         003B  5  00 00 00 E3 23 
   976)       694.9  Rx         0120  8  00 00 00 00 10 10 00 49 
   977)       695.9  Rx         0039  4  23 00 10 70 
   978)       696.9  Rx         0038  7  80 00 08 00 00 00 C7 
   979)       697.5  Rx         0030  8  04 00 00 00 00 20 00 5C 
   980)       697.8  Rx         00B3  6  00 00 00 00 11 CA 
   981)       698.9  Rx         003A  7  00 00 00 00 04 00 45 
   982)       700.9  Rx         003E  3  1D E6 44 
   983)       701.6  Rx         003B  5  00 00 00 E4 24 
   984)       703.5  Rx         0020  3  00 00 07 
   985)       703.8  Rx         0030  8  04 00 00 00 00 20 00 5C 
   986)       703.9  Rx         00B1  6  00 00 00 00 11 C8 
   987)       704.1  Rx         0039  4  23 00 10 70 
   988)       704.4  Rx         00B4  8  00 00 00 00 00 00 00 BC 
   989)       705.1  Rx         0038  7  80 00 08 00 00 00 C7 
   990)       705.4  Rx         0244  8  10 00 00 00 00 00 00 5E 
   991)       707.1  Rx         003A  7  00 00 00 00 04 00 45 
   992)       709.1  Rx         003E  3  1D E6 44 
   993)       709.6  Rx         003B  5  00 00 00 E3 23 
   994)       710.5  Rx         0030  8  04 00 00 00 00 20 00 5C 
   995)       710.7  Rx         00B3  6  00 00 00 00 11 CA 
   996)       711.2  Rx         0120  8  00 00 00 00 10 10 00 49 
   997)       711.8  Rx         0262  4  00 01 00 69 
   998)       712.3  Rx         0039  4  23 00 10 70 
   999)       713.3  Rx         0038  7  80 00 08 00 00 00 C7 
  1000)       715.3  Rx         003A  7  00 00 00 00 04 00 45 
  1001)       716.4  Rx         0020  3  00 00 07 
  1002)       716.7  Rx         0030  8  04 00 00 00 00 20 00 5C 
  1003)       716.9  Rx         00B1  6  00 00 00 00 11 C8 
  1004)       717.2  Rx         00B4  8  00 00 00 00 00 00 00 BC 
  1005)       717.3  Rx         003E  3  1D E6 44 
  1006)       717.5  Rx         0230  7  00 05 00 00 00 00 3E 
  1007)       717.7  Rx         003B  5  00 00 00 E3 23 
  1008)       720.5  Rx         0039  4  23 00 10 70 
  1009)       721.5  Rx         0038  7  80 00 08 00 00 00 C7 
  1010)       723.3  Rx         0030  8  04 00 00 00 00 20 00 5C 
  1011)       723.5  Rx         003A  7  00 00 00 00 04 00 45 
  1012)       723.7  Rx         00B3  6  00 00 00 00 11 CA 
  1013)       723.9  Rx         0348  6  00 01 00 00 00 52 
  1014)       725.5  Rx         003E  3  1D E6 44 
  1015)       725.7  Rx         003B  5  00 00 00 E3 23 
  1016)       727.6  Rx         0120  8  00 00 00 00 10 10 00 49 
  1017)       728.6  Rx         0039  4  23 00 10 70 
  1018)       729.2  Rx         0020  3  00 00 07 
  1019)       729.5  Rx         0030  8  04 00 00 00 00 20 00 5C 
  1020)       729.7  Rx         00B1  6  00 00 00 00 11 C8 
  1021)       729.9  Rx         0038  7  80 00 08 00 00 00 C7 
  1022)       730.1  Rx         00B4  8  00 00 00 00 00 00 00 BC 
  1023)       730.4  Rx         0244  8  10 00 00 00 00 00 00 5E 
  1024)       730.6  Rx         03C8  5  00 34 00 00 04 
  1025)       731.7  Rx         003A  7  00 00 00 00 04 00 45 
  1026)       731.9  Rx         0262  4  00 01 00 69 
  1027)       733.6  Rx         003B  5  00 00 00 E3 23 
  1028)       733.8  Rx         003E  3  1D E6 44 
  1029)       735.8  Rx         0030  8  04 00 00 00 00 20 00 5C 
  1030)       736.0  Rx         00B3  6  00 00 00 00 11 CA 
  1031)       736.8  Rx         0039  4  23 00 10 70 
  1032)       737.9  Rx         0038  7  80 00 08 00 00 00 C7 
  1033)       739.9  Rx         003A  7  00 00 00 00 04 00 45 
  1034)       740.0  Rx         03CF  5  10 0F 1D 00 13 
  1035)       741.6  Rx         003B  5  00 00 00 E3 23 
  1036)       741.8  Rx         0020  3  00 00 07 
  1037)       742.0  Rx         0030  8  04 00 00 00 00 20 00 5C 
  1038)       742.2  Rx         003E  3  1D E6 44 
  1039)       742.4  Rx         00B1  6  00 00 00 00 11 C8 
  1040)       742.6  Rx         00B4  8  00 00 00 00 00 00 00 BC 
  1041)       742.9  Rx         0230  7  00 05 00 00 00 00 3E 
  1042)       744.0  Rx         0120  8  00 00 00 00 10 10 00 49 
  1043)       745.0  Rx         0039  4  23 00 10 70 
  1044)       746.0  Rx         0038  7  80 00 08 00 00 00 C7 
  1045)       748.1  Rx         003A  7  00 00 00 00 04 00 45 
  1046)       748.5  Rx         0030  8  04 00 00 00 00 20 00 5C 
  1047)       748.7  Rx         00B3  6  00 00 00 00 11 CA 
  1048)       749.6  Rx         003B  5  00 00 00 E3 23 
  1049)       750.1  Rx         003E  3  1D E6 44 
  1050)       751.8  Rx         0262  4  00 01 00 69 
  1051)       752.1  Rx         03CA  5  00 20 00 00 F2 
  1052)       753.2  Rx         0039  4  23 00 10 70 
  1053)       754.2  Rx         0038  7  80 00 08 00 00 00 C7 
  1054)       754.5  Rx         0244  8  10 00 00 00 00 00 00 5E 
  1055)       754.7  Rx         0020  3  00 00 07 
  1056)       754.9  Rx         0030  8  04 00 00 00 00 20 00 5C 
  1057)       755.1  Rx         00B1  6  00 00 00 00 11 C8 
  1058)       755.4  Rx         00B4  8  00 00 00 00 00 00 00 BC 
  1059)       756.3  Rx         003A  7  00 00 00 00 04 00 45 
  1060)       757.6  Rx         003B  5  00 00 00 E4 24 
  1061)       758.3  Rx         003E  3  1D E6 44 
  1062)       760.3  Rx         0120  8  00 00 00 00 10 10 00 49 
  1063)       761.5  Rx         0030  8  04 00 00 00 00 20 00 5C 
  1064)       761.6  Rx         0039  4  23 00 10 70 
  1065)       761.8  Rx         00B3  6  00 00 00 00 11 CA 
  1066)       762.5  Rx         0038  7  80 00 08 00 00 00 C7 
  1067)       764.4  Rx         003A  7  00 00 00 00 04 00 45 
  1068)       764.7  Rx         0348  6  00 01 00 00 00 52 
  1069)       765.7  Rx         003B  5  00 00 00 E4 24 
  1070)       765.9  Rx         03C9  8  03 FF 21 02 9B 03 21 B8 
  1071)       766.4  Rx         003E  3  1D E6 44 
  1072)       767.4  Rx         0020  3  00 00 07 
  1073)       767.6  Rx         0030  8  04 00 00 00 00 20 00 5C 
  1074)       767.8  Rx         00B1  6  00 00 00 00 11 C8 
  1075)       768.1  Rx         00B4  8  00 00 00 00 00 00 00 BC 
  1076)       768.3  Rx         0230  7  00 05 00 00 00 00 3E 
  1077)       769.6  Rx         0039  4  23 00 10 70 
  1078)       770.6  Rx         0038  7  80 00 08 00 00 00 C7 
  1079)       771.9  Rx         0521  2  23 00 
  1080)       772.0  Rx         0262  4  00 01 00 69 
  1081)       772.6  Rx         003A  7  00 00 00 00 04 00 45 
  1082)       773.7  Rx         003B  5  00 00 00 E4 24 
  1083)       773.9  Rx         03CB  7  64 64 00 81 11 10 3F 
  1084)       774.2  Rx         0030  8  04 00 00 00 00 20 00 5C 
  1085)       774.4  Rx         00B3  6  00 00 00 00 11 CA 
  1086)       774.8  Rx         003E  3  1D E6 44 
  1087)       776.7  Rx         0120  8  00 00 00 00 10 10 00 49 
  1088)       777.8  Rx         0039  4  23 00 10 70 
  1089)       778.8  Rx         0038  7  80 00 08 00 00 00 C7 
  1090)       779.1  Rx         0244  8  10 00 00 00 00 00 00 5E 
  1091)       780.2  Rx         0020  3  00 00 07 
  1092)       780.4  Rx         0030  8  04 00 00 00 00 20 00 5C 
  1093)       780.6  Rx         00B1  6  00 00 00 00 11 C8 
  1094)       780.9  Rx         003A  7  00 00 00 00 04 00 45 
  1095)       781.1  Rx         00B4  8  00 00 00 00 00 00 00 BC 
  1096)       781.7  Rx         003B  5  00 00 00 E3 23 
  1097)       781.9  Rx         03CD  5  00 00 00 E3 B8 
  1098)       782.9  Rx         003E  3  1D E6 44 
  1099)       786.0  Rx         0039  4  23 00 10 70 
  1100)       786.9  Rx         0030  8  04 00 00 00 00 20 00 5C 
  1101)       787.1  Rx         0038  7  80 00 08 00 00 00 C7 
  1102)       787.3  Rx         00B3  6  00 00 00 00 11 CA 
  1103)       787.5  Rx         0591  4  25 A0 1C 06 
  1104)       789.0  Rx         003A  7  00 00 00 00 04 00 45 
  1105)       789.7  Rx         003B  5  00 00 00 E3 23 
  1106)       791.0  Rx         003E  3  1D E6 44 
  1107)       791.8  Rx         0262  4  00 01 00 69 
  1108)       792.9  Rx         0020  3  00 00 07 
  1109)       793.2  Rx         0030  8  04 00 00 00 00 20 00 5C 
  1110)       793.3  Rx         00B1  6  00 00 00 00 11 C8 
  1111)       793.6  Rx         00B4  8  00 00 00 00 00 00 00 BC 
  1112)       793.8  Rx         0120  8  00 00 00 00 10 10 00 49 
  1113)       794.0  Rx         0230  7  00 05 00 00 00 00 3E 
  1114)       794.2  Rx         0039  4  23 00 10 70 
  1115)       795.2  Rx         0038  7  80 00 08 00 00 00 C7 
  1116)       795.5  Rx         03C8  5  00 34 00 00 04 
  1117)       795.6  Rx         0540  4  25 80 00 00 
  1118)       797.2  Rx         003A  7  00 00 00 00 04 00 45 
  1119)       797.7  Rx         003B  5  00 00 00 E3 23 
  1120)       799.2  Rx         003E  3  1D E6 44 
  1121)       799.6  Rx         0030  8  04 00 00 00 00 20 00 5C 
  1122)       799.8  Rx         00B3  6  00 00 00 00 11 CA 
  1123)       802.4  Rx         0039  4  23 00 10 70 
  1124)       803.4  Rx         0038  7  80 00 08 00 00 00 C7 
  1125)       803.7  Rx         0244  8  10 00 00 00 00 00 00 5E 
  1126)       805.4  Rx         003A  7  00 00 00 00 04 00 45 
  1127)       805.6  Rx         0020  3  00 00 07 
  1128)       805.8  Rx         0030  8  04 00 00 00 00 20 00 5C 
  1129)       806.0  Rx         003B  5  00 00 00 E4 24 
  1130)       806.2  Rx         00B1  6  00 00 00 00 11 C8 
  1131)       806.4  Rx         00B4  8  00 00 00 00 00 00 00 BC 
  1132)       806.7  Rx         0348  6  00 01 00 00 00 52 
  1133)       807.4  Rx         003E  3  1D E6 44 
  1134)       809.5  Rx         0120  8  00 00 00 00 10 10 00 49 
  1135)       809.7  Rx         05CC  3  24 01 C0 
  1136)       810.6  Rx         0039  4  23 00 10 70 
  1137)       811.6  Rx         0038  7  80 00 08 00 00 00 C7 
  1138)       811.9  Rx         0262  4  00 01 00 69 
  1139)       812.6  Rx         0030  8  04 00 00 00 00 20 00 5C 
  1140)       812.8  Rx         00B3  6  00 00 00 00 11 CA 
  1141)       813.6  Rx         003A  7  00 00 00 00 04 00 45 
  1142)       813.8  Rx         003B  5  00 00 00 E3 23 
  1143)       815.6  Rx         003E  3  1D E6 44 
  1144)       818.5  Rx         0020  3  00 00 07 
  1145)       818.7  Rx         0030  8  04 00 00 00 00 20 00 5C 
  1146)       818.9  Rx         0039  4  23 00 10 70 
  1147)       819.1  Rx         00B1  6  00 00 00 00 11 C8 
  1148)       819.3  Rx         00B4  8  00 00 00 00 00 00 00 BC 
  1149)       819.6  Rx         0230  7  00 05 00 00 00 00 3E 
  1150)       819.8  Rx         0038  7  80 00 08 00 00 00 C7 
  1151)       821.7  Rx         003B  5  00 00 00 E3 23 
  1152)       821.9  Rx         003A  7  00 00 00 00 04 00 45 
  1153)       823.8  Rx         003E  3  1D E6 44 
  1154)       825.3  Rx         0030  8  04 00 00 00 00 20 00 5C 
  1155)       825.5  Rx         00B3  6  00 00 00 00 11 CA 
  1156)       825.9  Rx         0120  8  00 00 00 00 10 10 00 49 
  1157)       826.9  Rx         0039  4  23 00 10 70 
  1158)       828.0  Rx         0038  7  80 00 08 00 00 00 C7 
  1159)       828.3  Rx         0244  8  10 00 00 00 00 00 00 5E 
  1160)       829.7  Rx         003B  5  00 00 00 E3 23 
  1161)       830.0  Rx         003A  7  00 00 00 00 04 00 45 
  1162)       831.2  Rx         0020  3  00 00 07 
  1163)       831.5  Rx         0030  8  04 00 00 00 00 20 00 5C 
  1164)       831.6  Rx         00B1  6  00 00 00 00 11 C8 
  1165)       831.9  Rx         00B4  8  00 00 00 00 00 00 00 BC 
  1166)       832.1  Rx         003E  3  1D E6 44 
  1167)       832.2  Rx         0262  4  00 01 00 69 
  1168)       835.1  Rx         0039  4  23 00 10 70 
  1169)       836.2  Rx         0038  7  80 00 08 00 00 00 C7 
  1170)       837.7  Rx         003B  5  00 00 00 E3 23 
  1171)       838.0  Rx         0030  8  04 00 00 00 00 20 00 5C 
  1172)       838.1  Rx         00B3  6  00 00 00 00 11 CA 
  1173)       838.4  Rx         003A  7  00 00 00 00 04 00 45 
  1174)       838.6  Rx         04D0  8  10 00 02 02 00 00 00 00 
  1175)       840.2  Rx         003E  3  1D E6 44 
  1176)       842.3  Rx         0120  8  00 00 00 00 10 10 00 49 
  1177)       842.5  Rx         0528  4  25 00 00 00 
  1178)       843.4  Rx         0039  4  23 00 10 70 
  1179)       843.7  Rx         0020  3  00 00 07 
  1180)       844.0  Rx         0030  8  04 00 00 00 00 20 00 5C 
  1181)       844.2  Rx         00B1  6  00 00 00 00 11 C8 
  1182)       844.4  Rx         0038  7  80 00 08 00 00 00 C7 
  1183)       844.7  Rx         00B4  8  00 00 00 00 00 00 00 BC 
  1184)       844.9  Rx         05EC  7  28 00 00 00 00 00 00 
  1185)       845.1  Rx         0230  7  00 05 00 00 00 00 3E 
  1186)       845.7  Rx         003B  5  00 00 00 E3 23 
  1187)       846.4  Rx         003A  7  00 00 00 00 04 00 45 
  1188)       846.6  Rx         0348  6  00 01 00 00 00 52 
  1189)       848.4  Rx         003E  3  1D E6 44 
  1190)       850.5  Rx         0030  8  04 00 00 00 00 20 00 5C 
  1191)       850.7  Rx         00B3  6  00 00 00 00 11 CA 
  1192)       851.6  Rx         0039  4  23 00 10 70 
  1193)       851.8  Rx         0262  4  00 01 00 69 
  1194)       852.6  Rx         0038  7  80 00 08 00 00 00 C7 
  1195)       852.9  Rx         0244  8  10 00 00 00 00 00 00 5E 
  1196)       853.1  Rx         03CA  5  00 20 00 00 F2 
  1197)       853.7  Rx         003B  5  00 00 00 E3 23 
  1198)       854.5  Rx         003A  7  00 00 00 00 04 00 45 
  1199)       856.4  Rx         0020  3  00 00 07 
  1200)       856.7  Rx         0030  8  04 00 00 00 00 20 00 5C 
  1201)       856.8  Rx         003E  3  1D E6 44 
  1202)       857.0  Rx         00B1  6  00 00 00 00 11 C8 
  1203)       857.3  Rx         00B4  8  00 00 00 00 00 00 00 BC 
  1204)       858.7  Rx         0120  8  00 00 00 00 10 10 00 49 
  1205)       859.7  Rx         0039  4  23 00 10 70 
  1206)       860.7  Rx         0038  7  80 00 08 00 00 00 C7 
  1207)       860.9  Rx         03C8  5  00 34 00 00 04 
  1208)       861.7  Rx         003B  5  00 00 00 E4 24 
  1209)       862.7  Rx         003A  7  00 00 00 00 04 00 45 
  1210)       863.5  Rx         0030  8  04 00 00 00 00 20 00 5C 
  1211)       863.7  Rx         00B3  6  00 00 00 00 11 CA 
  1212)       864.7  Rx         003E  3  1D E6 44 
  1213)       865.8  Rx         03C9  8  03 FF 21 02 9B 03 21 B8 
  1214)       867.9  Rx         0039  4  23 00 10 70 
  1215)       868.9  Rx         0038  7  80 00 08 00 00 00 C7 
  1216)       869.4  Rx         0020  3  00 00 07 
  1217)       869.7  Rx         0030  8  04 00 00 00 00 20 00 5C 
  1218)       869.9  Rx         003B  5  00 00 00 E4 24 
  1219)       870.1  Rx         00B1  6  00 00 00 00 11 C8 
  1220)       870.3  Rx         00B4  8  00 00 00 00 00 00 00 BC 
  1221)       870.6  Rx         0230  7  00 05 00 00 00 00 3E 
  1222)       871.0  Rx         003A  7  00 00 00 00 04 00 45 
  1223)       871.1  Rx         03CF  5  10 0F 1D 00 13 
  1224)       871.9  Rx         0262  4  00 01 00 69 
  1225)       872.9  Rx         003E  3  1D E6 44 
  1226)       873.7  Rx         03CB  7  64 64 00 81 11 10 3F 
  1227)       875.1  Rx         0120  8  00 00 00 00 10 10 00 49 
  1228)       876.1  Rx         0039  4  23 00 10 70 
  1229)       876.4  Rx         0030  8  04 00 00 00 00 20 00 5C 
  1230)       876.6  Rx         00B3  6  00 00 00 00 11 CA 
  1231)       877.2  Rx         0038  7  80 00 08 00 00 00 C7 
  1232)       877.4  Rx         0244  8  10 00 00 00 00 00 00 5E 
  1233)       877.7  Rx         003B  5  00 00 00 E3 23 
  1234)       879.1  Rx         003A  7  00 00 00 00 04 00 45 
  1235)       881.1  Rx         003E  3  1D E6 44 
  1236)       881.7  Rx         03CD  5  00 00 00 E2 B7 
  1237)       882.2  Rx         0020  3  00 00 07 
  1238)       882.5  Rx         0030  8  04 00 00 00 00 20 00 5C 
  1239)       882.7  Rx         00B1  6  00 00 00 00 11 C8 
  1240)       882.9  Rx         00B4  8  00 00 00 00 00 00 00 BC 
  1241)       883.1  Rx         0526  3  24 00 00 
  1242)       884.3  Rx         0039  4  23 00 10 70 
  1243)       885.3  Rx         0038  7  80 00 08 00 00 00 C7 
  1244)       885.7  Rx         003B  5  00 00 00 E4 24 
  1245)       887.3  Rx         003A  7  00 00 00 00 04 00 45 
  1246)       887.5  Rx         0348  6  00 01 00 00 00 52 
  1247)       889.0  Rx         0030  8  04 00 00 00 00 20 00 5C 
  1248)       889.2  Rx         00B3  6  00 00 00 00 11 CA 
  1249)       889.4  Rx         003E  3  1D E6 44 
